name,type,start_time,duration,"data"
"bidirectionalExtensionBoard","data",0.44171575,0.00395825,0xAA
"bidirectionalExtensionBoard","data",0.44588525,0.00395825,0xBC
"bidirectionalExtensionBoard","data",0.450055,0.00395825,0x22
"bidirectionalExtensionBoard","data",0.45422475,0.00395825,0xAC
"bidirectionalExtensionBoard","data",0.45839425,0.00395825,0x00
"bidirectionalExtensionBoard","data",0.462564,0.00395825,0x00
"bidirectionalExtensionBoard","data",0.4667335,0.00395825,0x00
"bidirectionalExtensionBoard","data",0.4709035,0.00395825,0x00
"bidirectionalExtensionBoard","data",0.475073,0.00395825,0x00
"bidirectionalExtensionBoard","data",0.479243,0.00395825,0x03
"bidirectionalExtensionBoard","data",0.4834125,0.00395825,0x03
"bidirectionalExtensionBoard","data",0.4875825,0.00395825,0x41
"bidirectionalExtensionBoard","data",0.49175225,0.00395825,0x81
"bidirectionalExtensionBoard","data",0.49592225,0.00395825,0x01
"bidirectionalExtensionBoard","data",0.500092,0.00395825,0x43
"bidirectionalExtensionBoard","data",0.50426175,0.00395825,0x00
"bidirectionalExtensionBoard","data",0.50843125,0.00395825,0x00
"bidirectionalExtensionBoard","data",0.5126115,0.00395825,0x00
"bidirectionalExtensionBoard","data",0.5167835,0.00395825,0x00
"bidirectionalExtensionBoard","data",0.52095275,0.00395825,0x00
"bidirectionalExtensionBoard","data",0.52512275,0.00395825,0x00
"bidirectionalExtensionBoard","data",0.5292925,0.00395825,0x00
"bidirectionalExtensionBoard","data",0.533462,0.00395825,0x00
"bidirectionalExtensionBoard","data",0.537632,0.00395825,0x00
"bidirectionalExtensionBoard","data",0.54180125,0.00395825,0x00
"bidirectionalExtensionBoard","data",0.54597025,0.00395825,0x00
"bidirectionalExtensionBoard","data",0.5501395,0.00395825,0x00
"bidirectionalExtensionBoard","data",0.554309,0.00395825,0x00
"bidirectionalExtensionBoard","data",0.5584785,0.00395825,0x00
"bidirectionalExtensionBoard","data",0.56264825,0.00395825,0x00
"bidirectionalExtensionBoard","data",0.56681775,0.00395825,0x00
"bidirectionalExtensionBoard","data",0.57098675,0.00395825,0x00
"bidirectionalExtensionBoard","data",0.57515625,0.00395825,0x00
"bidirectionalExtensionBoard","data",0.5793255,0.00395825,0x11
"bidirectionalExtensionBoard","data",0.583495,0.00395825,0x82
"bidirectionalExtensionBoard","data",0.58766475,0.00395825,0x59
"bidirectionalExtensionBoard","data",0.59183375,0.00395825,0x00
"bidirectionalExtensionBoard","data",0.59600325,0.00395825,0xD4
"bidirectionalExtensionBoard","data",0.63970625,0.00395825,0x55
"bidirectionalExtensionBoard","data",0.643878,0.00395825,0xBC
"bidirectionalExtensionBoard","data",0.64804925,0.00395825,0x22
"bidirectionalExtensionBoard","data",0.6522205,0.00395825,0xAC
"bidirectionalExtensionBoard","data",0.656392,0.00395825,0x00
"bidirectionalExtensionBoard","data",0.6605635,0.00395825,0x00
"bidirectionalExtensionBoard","data",0.66473475,0.00395825,0x00
"bidirectionalExtensionBoard","data",0.6689065,0.00395825,0x00
"bidirectionalExtensionBoard","data",0.673078,0.00395825,0x00
"bidirectionalExtensionBoard","data",0.67725,0.00395825,0x03
"bidirectionalExtensionBoard","data",0.681422,0.00395825,0x03
"bidirectionalExtensionBoard","data",0.6855935,0.00395825,0xC1
"bidirectionalExtensionBoard","data",0.68976525,0.00395825,0x21
"bidirectionalExtensionBoard","data",0.69393675,0.00395825,0x01
"bidirectionalExtensionBoard","data",0.6981085,0.00395825,0x03
"bidirectionalExtensionBoard","data",0.7022805,0.00395825,0x00
"bidirectionalExtensionBoard","data",0.706452,0.00395825,0x00
"bidirectionalExtensionBoard","data",0.71062375,0.00395825,0x00
"bidirectionalExtensionBoard","data",0.7147955,0.00395825,0x00
"bidirectionalExtensionBoard","data",0.7189675,0.00395825,0x00
"bidirectionalExtensionBoard","data",0.72313925,0.00395825,0x08
"bidirectionalExtensionBoard","data",0.72731075,0.00395825,0x61
"bidirectionalExtensionBoard","data",0.7314825,0.00395825,0x3E
"bidirectionalExtensionBoard","data",0.735654,0.00395825,0x72
"bidirectionalExtensionBoard","data",0.7398255,0.00395825,0xAB
"bidirectionalExtensionBoard","data",0.74399675,0.00395825,0xB3
"bidirectionalExtensionBoard","data",0.74816825,0.00395825,0x00
"bidirectionalExtensionBoard","data",0.75234,0.00395825,0x39
"bidirectionalExtensionBoard","data",0.75651125,0.00395825,0x00
"bidirectionalExtensionBoard","data",0.76068475,0.00395825,0x00
"bidirectionalExtensionBoard","data",0.76485625,0.00395825,0x00
"bidirectionalExtensionBoard","data",0.7690455,0.00395825,0x00
"bidirectionalExtensionBoard","data",0.77321675,0.00395825,0x00
"bidirectionalExtensionBoard","data",0.777388,0.00395825,0x00
"bidirectionalExtensionBoard","data",0.78156,0.00395825,0x00
"bidirectionalExtensionBoard","data",0.78573175,0.00395825,0x96
"bidirectionalExtensionBoard","data",0.78990325,0.00395825,0x00
"bidirectionalExtensionBoard","data",0.794075,0.00395825,0xEF
"bidirectionalExtensionBoard","data",1.541583,0.00395825,0xAA
"bidirectionalExtensionBoard","data",1.54575225,0.00395825,0xBC
"bidirectionalExtensionBoard","data",1.54992175,0.00395825,0x22
"bidirectionalExtensionBoard","data",1.55409125,0.00395825,0xAC
"bidirectionalExtensionBoard","data",1.55826125,0.00395825,0x00
"bidirectionalExtensionBoard","data",1.562431,0.00395825,0x00
"bidirectionalExtensionBoard","data",1.566601,0.00395825,0x00
"bidirectionalExtensionBoard","data",1.570771,0.00395825,0x00
"bidirectionalExtensionBoard","data",1.5749405,0.00395825,0x00
"bidirectionalExtensionBoard","data",1.57911025,0.00395825,0x03
"bidirectionalExtensionBoard","data",1.58328,0.00395825,0x03
"bidirectionalExtensionBoard","data",1.58745,0.00395825,0x41
"bidirectionalExtensionBoard","data",1.59161975,0.00395825,0x81
"bidirectionalExtensionBoard","data",1.5957895,0.00395825,0x00
"bidirectionalExtensionBoard","data",1.5999595,0.00395825,0xFF
"bidirectionalExtensionBoard","data",1.60412925,0.00395825,0x00
"bidirectionalExtensionBoard","data",1.608299,0.00395825,0x00
"bidirectionalExtensionBoard","data",1.61247975,0.00395825,0x00
"bidirectionalExtensionBoard","data",1.61665225,0.00395825,0x00
"bidirectionalExtensionBoard","data",1.620822,0.00395825,0x00
"bidirectionalExtensionBoard","data",1.6249915,0.00395825,0x00
"bidirectionalExtensionBoard","data",1.629161,0.00395825,0x00
"bidirectionalExtensionBoard","data",1.633331,0.00395825,0x00
"bidirectionalExtensionBoard","data",1.63750075,0.00395825,0x00
"bidirectionalExtensionBoard","data",1.64167025,0.00395825,0x00
"bidirectionalExtensionBoard","data",1.64584,0.00395825,0x00
"bidirectionalExtensionBoard","data",1.65000875,0.00395825,0x00
"bidirectionalExtensionBoard","data",1.654178,0.00395825,0x00
"bidirectionalExtensionBoard","data",1.6583475,0.00395825,0x00
"bidirectionalExtensionBoard","data",1.66251625,0.00395825,0x00
"bidirectionalExtensionBoard","data",1.66668575,0.00395825,0x00
"bidirectionalExtensionBoard","data",1.670855,0.00395825,0x00
"bidirectionalExtensionBoard","data",1.67502425,0.00395825,0x00
"bidirectionalExtensionBoard","data",1.6791935,0.00395825,0x99
"bidirectionalExtensionBoard","data",1.68336275,0.00395825,0xEB
"bidirectionalExtensionBoard","data",1.68753175,0.00395825,0x16
"bidirectionalExtensionBoard","data",1.691701,0.00395825,0x00
"bidirectionalExtensionBoard","data",1.69587075,0.00395825,0x6B
"bidirectionalExtensionBoard","data",1.73932425,0.00395825,0x55
"bidirectionalExtensionBoard","data",1.74349575,0.00395825,0xBC
"bidirectionalExtensionBoard","data",1.74766725,0.00395825,0x28
"bidirectionalExtensionBoard","data",1.751839,0.00395825,0xAC
"bidirectionalExtensionBoard","data",1.75601075,0.00395825,0x00
"bidirectionalExtensionBoard","data",1.76018225,0.00395825,0x00
"bidirectionalExtensionBoard","data",1.76435375,0.00395825,0x00
"bidirectionalExtensionBoard","data",1.76852525,0.00395825,0x00
"bidirectionalExtensionBoard","data",1.77269725,0.00395825,0x00
"bidirectionalExtensionBoard","data",1.77686875,0.00395825,0x03
"bidirectionalExtensionBoard","data",1.7810405,0.00395825,0x03
"bidirectionalExtensionBoard","data",1.78521675,0.00395825,0xC0
"bidirectionalExtensionBoard","data",1.78938825,0.00395825,0x01
"bidirectionalExtensionBoard","data",1.79356,0.00395825,0x8A
"bidirectionalExtensionBoard","data",1.797732,0.00395825,0x66
"bidirectionalExtensionBoard","data",1.80190375,0.00395825,0x7F
"bidirectionalExtensionBoard","data",1.8060755,0.00395825,0x7F
"bidirectionalExtensionBoard","data",1.81024725,0.00395825,0x00
"bidirectionalExtensionBoard","data",1.814419,0.00395825,0x00
"bidirectionalExtensionBoard","data",1.81859025,0.00395825,0x00
"bidirectionalExtensionBoard","data",1.822762,0.00395825,0x00
"bidirectionalExtensionBoard","data",1.82693375,0.00395825,0x00
"bidirectionalExtensionBoard","data",1.83110525,0.00395825,0x61
"bidirectionalExtensionBoard","data",1.835281,0.00395825,0x46
"bidirectionalExtensionBoard","data",1.83945275,0.00395825,0x0E
"bidirectionalExtensionBoard","data",1.843624,0.00395825,0x00
"bidirectionalExtensionBoard","data",1.84779575,0.00395825,0x19
"bidirectionalExtensionBoard","data",1.85196775,0.00395825,0x00
"bidirectionalExtensionBoard","data",1.8561395,0.00395825,0x00
"bidirectionalExtensionBoard","data",1.86031325,0.00395825,0x00
"bidirectionalExtensionBoard","data",1.86448475,0.00395825,0x00
"bidirectionalExtensionBoard","data",1.86865625,0.00395825,0x00
"bidirectionalExtensionBoard","data",1.87282775,0.00395825,0x00
"bidirectionalExtensionBoard","data",1.876999,0.00395825,0x00
"bidirectionalExtensionBoard","data",1.881171,0.00395825,0x01
"bidirectionalExtensionBoard","data",1.8853425,0.00395825,0x00
"bidirectionalExtensionBoard","data",1.8895145,0.00395825,0x00
"bidirectionalExtensionBoard","data",1.893686,0.00395825,0x00
"bidirectionalExtensionBoard","data",1.8978575,0.00395825,0x00
"bidirectionalExtensionBoard","data",1.902029,0.00395825,0x00
"bidirectionalExtensionBoard","data",1.90620075,0.00395825,0x00
"bidirectionalExtensionBoard","data",1.9103725,0.00395825,0xA8
"bidirectionalExtensionBoard","data",1.91454475,0.00395825,0x00
"bidirectionalExtensionBoard","data",1.91871675,0.00395825,0xEF
"wifiBrown","data",2.21194375,0.0009895,0xAA
"wifiBrown","data",2.2129945,0.0009895,0x2B
"wifiBrown","data",2.2140455,0.0009895,0xAC
"wifiBrown","data",2.2150965,0.0009895,0x00
"wifiBrown","data",2.2161475,0.0009895,0x00
"wifiBrown","data",2.2171985,0.0009895,0x00
"wifiBrown","data",2.21824925,0.0009895,0x00
"wifiBrown","data",2.2193,0.0009895,0x00
"wifiBrown","data",2.220351,0.0009895,0x02
"wifiBrown","data",2.22140175,0.0009895,0x04
"wifiBrown","data",2.2224525,0.0009895,0xA2
"wifiBrown","data",2.2235035,0.0009895,0x00
"wifiBrown","data",2.2245545,0.0009895,0x00
"wifiBrown","data",2.2256055,0.0009895,0x00
"wifiBrown","data",2.22665625,0.0009895,0x00
"wifiBrown","data",2.22770725,0.0009895,0x00
"wifiBrown","data",2.22875825,0.0009895,0x00
"wifiBrown","data",2.22980925,0.0009895,0x00
"wifiBrown","data",2.23086025,0.0009895,0x00
"wifiBrown","data",2.231911,0.0009895,0x00
"wifiBrown","data",2.2329625,0.0009895,0x00
"wifiBrown","data",2.23401325,0.0009895,0x00
"wifiBrown","data",2.23506425,0.0009895,0x00
"wifiBrown","data",2.23611525,0.0009895,0x00
"wifiBrown","data",2.23716625,0.0009895,0x00
"wifiBrown","data",2.238217,0.0009895,0x00
"wifiBrown","data",2.23926825,0.0009895,0x00
"wifiBrown","data",2.240319,0.0009895,0x00
"wifiBrown","data",2.24137,0.0009895,0x00
"wifiBrown","data",2.242421,0.0009895,0x00
"wifiBrown","data",2.243472,0.0009895,0x00
"wifiBrown","data",2.24452275,0.0009895,0x00
"wifiBrown","data",2.24557375,0.0009895,0x00
"wifiBrown","data",2.24662475,0.0009895,0x00
"wifiBrown","data",2.2476755,0.0009895,0x00
"wifiBrown","data",2.2487265,0.0009895,0x00
"wifiBrown","data",2.2497775,0.0009895,0x00
"wifiBrown","data",2.2508285,0.0009895,0x00
"wifiBrown","data",2.2518795,0.0009895,0x00
"wifiBrown","data",2.2529305,0.0009895,0x00
"wifiBrown","data",2.25398125,0.0009895,0x00
"wifiBrown","data",2.25503225,0.0009895,0x00
"wifiBrown","data",2.25608325,0.0009895,0xA4
"wifiBrown","data",2.25713475,0.0009895,0xDD
"bidirectionalExtensionBoard","data",2.641443,0.00395825,0xAA
"bidirectionalExtensionBoard","data",2.645612,0.00395825,0xBC
"bidirectionalExtensionBoard","data",2.64978125,0.00395825,0x22
"bidirectionalExtensionBoard","data",2.6539505,0.00395825,0xAC
"bidirectionalExtensionBoard","data",2.65812025,0.00395825,0x00
"bidirectionalExtensionBoard","data",2.66229,0.00395825,0x00
"bidirectionalExtensionBoard","data",2.66645975,0.00395825,0x00
"bidirectionalExtensionBoard","data",2.670629,0.00395825,0x00
"bidirectionalExtensionBoard","data",2.6747985,0.00395825,0x00
"bidirectionalExtensionBoard","data",2.67896825,0.00395825,0x03
"bidirectionalExtensionBoard","data",2.68313725,0.00395825,0x03
"bidirectionalExtensionBoard","data",2.68730675,0.00395825,0x93
"bidirectionalExtensionBoard","data",2.691476,0.00395825,0x00
"bidirectionalExtensionBoard","data",2.69564525,0.00395825,0x00
"bidirectionalExtensionBoard","data",2.6998145,0.00395825,0x84
"bidirectionalExtensionBoard","data",2.70398425,0.00395825,0x05
"bidirectionalExtensionBoard","data",2.70815325,0.00395825,0x00
"bidirectionalExtensionBoard","data",2.71233275,0.00395825,0x00
"bidirectionalExtensionBoard","data",2.71650375,0.00395825,0x00
"bidirectionalExtensionBoard","data",2.720673,0.00395825,0x00
"bidirectionalExtensionBoard","data",2.72484175,0.00395825,0x00
"bidirectionalExtensionBoard","data",2.7290105,0.00395825,0x00
"bidirectionalExtensionBoard","data",2.73317925,0.00395825,0x00
"bidirectionalExtensionBoard","data",2.7373485,0.00395825,0x00
"bidirectionalExtensionBoard","data",2.7415175,0.00395825,0x00
"bidirectionalExtensionBoard","data",2.745687,0.00395825,0x00
"bidirectionalExtensionBoard","data",2.74985575,0.00395825,0x00
"bidirectionalExtensionBoard","data",2.75402525,0.00395825,0x00
"bidirectionalExtensionBoard","data",2.75819475,0.00395825,0x00
"bidirectionalExtensionBoard","data",2.76236375,0.00395825,0x00
"bidirectionalExtensionBoard","data",2.76653275,0.00395825,0x00
"bidirectionalExtensionBoard","data",2.77070225,0.00395825,0x00
"bidirectionalExtensionBoard","data",2.7748715,0.00395825,0x00
"bidirectionalExtensionBoard","data",2.77904,0.00395825,0x1E
"bidirectionalExtensionBoard","data",2.783209,0.00395825,0x6A
"bidirectionalExtensionBoard","data",2.78737825,0.00395825,0x36
"bidirectionalExtensionBoard","data",2.791547,0.00395825,0x00
"bidirectionalExtensionBoard","data",2.79571575,0.00395825,0xEC
"bidirectionalExtensionBoard","data",2.83947,0.00395825,0x55
"bidirectionalExtensionBoard","data",2.8436415,0.00395825,0xBC
"bidirectionalExtensionBoard","data",2.847813,0.00395825,0x28
"bidirectionalExtensionBoard","data",2.85198525,0.00395825,0xAC
"bidirectionalExtensionBoard","data",2.85615675,0.00395825,0x00
"bidirectionalExtensionBoard","data",2.860328,0.00395825,0x00
"bidirectionalExtensionBoard","data",2.86449975,0.00395825,0x00
"bidirectionalExtensionBoard","data",2.86867075,0.00395825,0x00
"bidirectionalExtensionBoard","data",2.87284225,0.00395825,0x00
"bidirectionalExtensionBoard","data",2.87701375,0.00395825,0x03
"bidirectionalExtensionBoard","data",2.88118525,0.00395825,0x03
"bidirectionalExtensionBoard","data",2.8853565,0.00395825,0x93
"bidirectionalExtensionBoard","data",2.889528,0.00395825,0x00
"bidirectionalExtensionBoard","data",2.89369925,0.00395825,0x00
"bidirectionalExtensionBoard","data",2.89787025,0.00395825,0x84
"bidirectionalExtensionBoard","data",2.902041,0.00395825,0x00
"bidirectionalExtensionBoard","data",2.90621225,0.00395825,0x00
"bidirectionalExtensionBoard","data",2.910383,0.00395825,0x00
"bidirectionalExtensionBoard","data",2.91455425,0.00395825,0x00
"bidirectionalExtensionBoard","data",2.918725,0.00395825,0x00
"bidirectionalExtensionBoard","data",2.922896,0.00395825,0x10
"bidirectionalExtensionBoard","data",2.92706725,0.00395825,0x30
"bidirectionalExtensionBoard","data",2.9312385,0.00395825,0x05
"bidirectionalExtensionBoard","data",2.93541,0.00395825,0x00
"bidirectionalExtensionBoard","data",2.939581,0.00395825,0x02
"bidirectionalExtensionBoard","data",2.9437725,0.00395825,0x30
"bidirectionalExtensionBoard","data",2.94794375,0.00395825,0x0E
"bidirectionalExtensionBoard","data",2.952115,0.00395825,0x00
"bidirectionalExtensionBoard","data",2.9562865,0.00395825,0xBC
"bidirectionalExtensionBoard","data",2.96045825,0.00395825,0xD6
"bidirectionalExtensionBoard","data",2.9646295,0.00395825,0x50
"bidirectionalExtensionBoard","data",2.968803,0.00395825,0x00
"bidirectionalExtensionBoard","data",2.972975,0.00395825,0x00
"bidirectionalExtensionBoard","data",2.9771465,0.00395825,0x00
"bidirectionalExtensionBoard","data",2.9813185,0.00395825,0x00
"bidirectionalExtensionBoard","data",2.98549025,0.00395825,0x80
"bidirectionalExtensionBoard","data",2.98966175,0.00395825,0x80
"bidirectionalExtensionBoard","data",2.99383325,0.00395825,0x80
"bidirectionalExtensionBoard","data",2.9980045,0.00395825,0x80
"bidirectionalExtensionBoard","data",3.002176,0.00395825,0x00
"bidirectionalExtensionBoard","data",3.00634775,0.00395825,0x00
"bidirectionalExtensionBoard","data",3.0105195,0.00395825,0xA8
"bidirectionalExtensionBoard","data",3.01469075,0.00395825,0x00
"bidirectionalExtensionBoard","data",3.01886225,0.00395825,0xEF
"bidirectionalExtensionBoard","data",3.7412805,0.00395825,0xAA
"bidirectionalExtensionBoard","data",3.74544975,0.00395825,0xBC
"bidirectionalExtensionBoard","data",3.7496195,0.00395825,0x22
"bidirectionalExtensionBoard","data",3.75378925,0.00395825,0xAC
"bidirectionalExtensionBoard","data",3.757959,0.00395825,0x00
"bidirectionalExtensionBoard","data",3.76212875,0.00395825,0x00
"bidirectionalExtensionBoard","data",3.7662985,0.00395825,0x00
"bidirectionalExtensionBoard","data",3.770468,0.00395825,0x00
"bidirectionalExtensionBoard","data",3.77463675,0.00395825,0x00
"bidirectionalExtensionBoard","data",3.7788065,0.00395825,0x03
"bidirectionalExtensionBoard","data",3.78297625,0.00395825,0x03
"bidirectionalExtensionBoard","data",3.78714575,0.00395825,0x41
"bidirectionalExtensionBoard","data",3.79131575,0.00395825,0x81
"bidirectionalExtensionBoard","data",3.7954855,0.00395825,0x01
"bidirectionalExtensionBoard","data",3.79965475,0.00395825,0x41
"bidirectionalExtensionBoard","data",3.80382425,0.00395825,0x00
"bidirectionalExtensionBoard","data",3.80799325,0.00395825,0x00
"bidirectionalExtensionBoard","data",3.812162,0.00395825,0x00
"bidirectionalExtensionBoard","data",3.816331,0.00395825,0x00
"bidirectionalExtensionBoard","data",3.8205005,0.00395825,0x00
"bidirectionalExtensionBoard","data",3.8246825,0.00395825,0x00
"bidirectionalExtensionBoard","data",3.82885225,0.00395825,0x00
"bidirectionalExtensionBoard","data",3.83302125,0.00395825,0x00
"bidirectionalExtensionBoard","data",3.8371905,0.00395825,0x00
"bidirectionalExtensionBoard","data",3.84135975,0.00395825,0x00
"bidirectionalExtensionBoard","data",3.84552875,0.00395825,0x00
"bidirectionalExtensionBoard","data",3.84969825,0.00395825,0x00
"bidirectionalExtensionBoard","data",3.8538675,0.00395825,0x00
"bidirectionalExtensionBoard","data",3.85803675,0.00395825,0x00
"bidirectionalExtensionBoard","data",3.86220575,0.00395825,0x00
"bidirectionalExtensionBoard","data",3.86637525,0.00395825,0x00
"bidirectionalExtensionBoard","data",3.8705445,0.00395825,0x00
"bidirectionalExtensionBoard","data",3.87471325,0.00395825,0x00
"bidirectionalExtensionBoard","data",3.87888275,0.00395825,0xA1
"bidirectionalExtensionBoard","data",3.88305175,0.00395825,0x3F
"bidirectionalExtensionBoard","data",3.88722075,0.00395825,0xCB
"bidirectionalExtensionBoard","data",3.89138975,0.00395825,0x00
"bidirectionalExtensionBoard","data",3.895559,0.00395825,0x17
"bidirectionalExtensionBoard","data",3.93913375,0.00395825,0x55
"bidirectionalExtensionBoard","data",3.9433055,0.00395825,0xBC
"bidirectionalExtensionBoard","data",3.94747675,0.00395825,0x22
"bidirectionalExtensionBoard","data",3.95164825,0.00395825,0xAC
"bidirectionalExtensionBoard","data",3.9558195,0.00395825,0x00
"bidirectionalExtensionBoard","data",3.95999075,0.00395825,0x00
"bidirectionalExtensionBoard","data",3.964162,0.00395825,0x00
