Time [s],Channel 6,Channel 7
0.000000000,1,1
0.193535250,0,1
0.193556000,1,1
0.193576750,0,1
0.193597750,1,1
0.193660250,0,1
0.193681000,1,1
0.193743500,0,1
0.193764500,1,1
0.193785250,0,1
0.193806250,1,1
0.193868750,0,1
0.193889500,1,1
0.193952000,0,1
0.193972750,1,1
0.193993500,0,1
0.194014500,1,1
0.194035250,0,1
0.194056250,1,1
0.194160500,0,1
0.194181250,1,1
0.194201750,0,1
0.194223000,1,1
0.194243750,0,1
0.194264500,1,1
0.194327000,0,1
0.194348000,1,1
0.194368500,0,1
0.194389500,1,1
0.194410250,0,1
0.194431250,1,1
0.194452000,0,1
0.194473000,1,1
0.194493750,0,1
0.194514500,1,1
0.194535250,0,1
0.194556250,1,1
0.194577000,0,1
0.194598000,1,1
0.194618750,0,1
0.194639750,1,1
0.194660250,0,1
0.194681250,1,1
0.194702000,0,1
0.194723000,1,1
0.194743750,0,1
0.194764750,1,1
0.194785500,0,1
0.194806250,1,1
0.194827000,0,1
0.194848000,1,1
0.194868750,0,1
0.194889750,1,1
0.194910500,0,1
0.194931500,1,1
0.194952000,0,1
0.194973000,1,1
0.194993750,0,1
0.195014750,1,1
0.195035500,0,1
0.195056500,1,1
0.195077000,0,1
0.195098000,1,1
0.195118750,0,1
0.195139750,1,1
0.195160500,0,1
0.195181500,1,1
0.195202250,0,1
0.195223250,1,1
0.195243750,0,1
0.195264750,1,1
0.195285500,0,1
0.195306500,1,1
0.195327250,0,1
0.195348250,1,1
0.195368750,0,1
0.195389750,1,1
0.195410500,0,1
0.195431500,1,1
0.195452250,0,1
0.195473250,1,1
0.195493750,0,1
0.195514750,1,1
0.195535500,0,1
0.195556500,1,1
0.195577250,0,1
0.195598250,1,1
0.195619000,0,1
0.195640000,1,1
0.195660500,0,1
0.195681500,1,1
0.195702250,0,1
0.195723250,1,1
0.195744000,0,1
0.195765000,1,1
0.195785750,0,1
0.195806500,1,1
0.195827250,0,1
0.195848250,1,1
0.195869000,0,1
0.195890000,1,1
0.195910750,0,1
0.195931500,1,1
0.195952250,0,1
0.195973250,1,1
0.195994000,0,1
0.196015000,1,1
0.196035750,0,1
0.196056750,1,1
0.196077250,0,1
0.196098250,1,1
0.196160750,0,1
0.196181750,1,1
0.196244250,0,1
0.196265000,1,1
0.196327500,0,1
0.196348250,1,1
0.196411000,0,1
0.196431750,1,1
0.196452500,0,1
0.196473500,1,1
0.196536000,0,1
0.196556750,1,1
0.196619250,0,1
0.196640000,1,1
0.196660750,0,1
0.196681750,1,1
0.196702500,0,1
0.196723500,1,1
0.196786000,0,1
0.196806750,1,1
0.196869250,0,1
0.196890250,1,1
0.196910750,0,1
0.196931750,1,1
0.196952500,0,1
0.196973500,1,1
0.196994250,0,1
0.197015250,1,1
0.197036000,0,1
0.197057000,1,1
0.197077500,0,1
0.197098500,1,1
0.197119250,0,1
0.197140250,1,1
0.197161000,0,1
0.197182000,1,1
0.197202500,0,1
0.197223500,1,1
0.197244250,0,1
0.197265250,1,1
0.197286000,0,1
0.197307000,1,1
0.197327500,0,1
0.197348500,1,1
0.197369250,0,1
0.197390250,1,1
0.197411000,0,1
0.197432000,1,1
0.197452750,0,1
0.197473750,1,1
0.197494250,0,1
0.197515250,1,1
0.197536000,0,1
0.197557000,1,1
0.197577750,0,1
0.197598750,1,1
0.197619250,0,1
0.197640250,1,1
0.197661000,0,1
0.197682000,1,1
0.197702750,0,1
0.197723750,1,1
0.197744500,0,1
0.197765250,1,1
0.197786000,0,1
0.197807000,1,1
0.197827750,0,1
0.197848750,1,1
0.197869500,0,1
0.197890500,1,1
0.197911000,0,1
0.197932000,1,1
0.197952750,0,1
0.197973750,1,1
0.197994500,0,1
0.198015500,1,1
0.198036250,0,1
0.198057000,1,1
0.198077750,0,1
0.198098750,1,1
0.198119500,0,1
0.198140500,1,1
0.198161250,0,1
0.198182250,1,1
0.198202750,0,1
0.198223750,1,1
0.198244500,0,1
0.198265500,1,1
0.198286250,0,1
0.198307250,1,1
0.198327750,0,1
0.198348750,1,1
0.198369500,0,1
0.198390500,1,1
0.198411250,0,1
0.198432250,1,1
0.198453000,0,1
0.198474000,1,1
0.198494500,0,1
0.198515500,1,1
0.198536250,0,1
0.198557250,1,1
0.198578000,0,1
0.198599000,1,1
0.198619500,0,1
0.198640500,1,1
0.198661250,0,1
0.198682250,1,1
0.198703000,0,1
0.198724000,1,1
0.198744500,0,1
0.198765500,1,1
0.198786250,0,1
0.198807250,1,1
0.198828000,0,1
0.198849000,1,1
0.198869750,0,1
0.198890750,1,1
0.198911250,0,1
0.198932250,1,1
0.198953000,0,1
0.198974000,1,1
0.199078250,0,1
0.199099000,1,1
0.199119500,0,1
0.199140750,1,1
0.199161500,0,1
0.199182250,1,1
0.199286500,0,1
0.199307250,1,1
0.199369750,0,1
0.199390750,1,1
0.199411500,0,1
0.199432500,1,1
0.199453000,0,1
0.199474000,1,1
0.199494750,0,1
0.199515750,1,1
0.199536500,0,1
0.199557500,1,1
0.199578250,0,1
0.199599250,1,1
0.199619750,0,1
0.199640750,1,1
0.199703250,0,1
0.199724250,1,1
0.199744750,0,1
0.199765750,1,1
0.199786500,0,1
0.199807500,1,1
0.199870000,0,1
0.199890750,1,1
0.199953250,0,1
0.199974250,1,1
0.199994750,0,1
0.200016000,1,1
0.200078500,0,1
0.200099250,1,1
0.200161750,0,1
0.200182500,1,1
0.213421250,1,0
0.213423000,0,0
0.213442000,0,1
0.213443750,1,1
0.213462750,1,0
0.213464250,0,0
0.213483750,0,1
0.213485250,1,1
0.213546000,1,0
0.213547750,0,0
0.213567000,0,1
0.213568500,1,1
0.213629250,1,0
0.213630750,0,0
0.213650250,0,1
0.213651750,1,1
0.213671000,1,0
0.213672250,0,0
0.213691750,0,1
0.213693500,1,1
0.213754250,1,0
0.213755750,0,0
0.213775000,0,1
0.213776750,1,1
0.213837500,1,0
0.213839000,0,0
0.213858250,0,1
0.213860000,1,1
0.213879000,1,0
0.213880500,0,0
0.213900000,0,1
0.213901750,1,1
0.213920750,1,0
0.213922250,0,0
0.213941500,0,1
0.213943250,1,1
0.214045750,1,0
0.214047250,0,0
0.214066500,0,1
0.214068000,1,1
0.214087250,1,0
0.214088500,0,0
0.214108000,0,1
0.214109750,1,1
0.214129000,1,0
0.214130250,0,0
0.214149750,0,1
0.214151250,1,1
0.214212250,1,0
0.214213750,0,0
0.214233000,0,1
0.214234750,1,1
0.214253750,1,0
0.214255250,0,0
0.214274500,0,1
0.214276250,1,1
0.214295500,1,0
0.214296750,0,0
0.214316250,0,1
0.214318000,1,1
0.214337000,1,0
0.214338500,0,0
0.214357750,0,1
0.214359500,1,1
0.214378750,1,0
0.214380000,0,0
0.214399500,0,1
0.214401250,1,1
0.214420250,1,0
0.214421750,0,0
0.214441000,0,1
0.214442750,1,1
0.214462000,1,0
0.214463250,0,0
0.214482750,0,1
0.214484500,1,1
0.214503500,1,0
0.214505000,0,0
0.214524500,0,1
0.214526000,1,1
0.214545250,1,0
0.214546500,0,0
0.214566000,0,1
0.214567750,1,1
0.214586750,1,0
0.214588250,0,0
0.214607750,0,1
0.214609250,1,1
0.214628500,1,0
0.214629750,0,0
0.214649250,0,1
0.214651000,1,1
0.214670000,1,0
0.214671500,0,0
0.214691000,0,1
0.214692500,1,1
0.214711750,1,0
0.214713000,0,0
0.214732500,0,1
0.214734250,1,1
0.214753250,1,0
0.214754750,0,0
0.214774250,0,1
0.214775750,1,1
0.214795000,1,0
0.214796250,0,0
0.214815750,0,1
0.214817500,1,1
0.214836500,1,0
0.214838000,0,0
0.214857500,0,1
0.214859000,1,1
0.214878250,1,0
0.214879750,0,0
0.214899000,0,1
0.214900750,1,1
0.214919750,1,0
0.214921250,0,0
0.214940750,0,1
0.214942250,1,1
0.214961500,1,0
0.214963000,0,0
0.214982250,0,1
0.214984000,1,1
0.215003250,1,0
0.215004500,0,0
0.215024000,0,1
0.215025750,1,1
0.215044750,1,0
0.215046250,0,0
0.215065500,0,1
0.215067250,1,1
0.215086500,1,0
0.215087750,0,0
0.215107250,0,1
0.215109000,1,1
0.215128000,1,0
0.215129500,0,0
0.215148750,0,1
0.215150500,1,1
0.215169750,1,0
0.215171000,0,0
0.215190500,0,1
0.215192250,1,1
0.215211250,1,0
0.215212750,0,0
0.215232000,0,1
0.215233750,1,1
0.215253000,1,0
0.215254250,0,0
0.215273750,0,1
0.215275500,1,1
0.215294500,1,0
0.215296000,0,0
0.215315500,0,1
0.215317000,1,1
0.215336250,1,0
0.215337500,0,0
0.215357000,0,1
0.215358750,1,1
0.215377750,1,0
0.215379250,0,0
0.215398750,0,1
0.215400250,1,1
0.215419500,1,0
0.215421000,0,0
0.215440250,0,1
0.215442000,1,1
0.215461000,1,0
0.215462500,0,0
0.215482000,0,1
0.215483750,1,1
0.215502750,1,0
0.215504250,0,0
0.215523500,0,1
0.215525250,1,1
0.215544500,1,0
0.215545750,0,0
0.215565250,0,1
0.215567000,1,1
0.215586000,1,0
0.215587500,0,0
0.215606750,0,1
0.215608500,1,1
0.215627750,1,0
0.215629000,0,0
0.215648500,0,1
0.215650250,1,1
0.215669250,1,0
0.215670750,0,0
0.215690000,0,1
0.215691750,1,1
0.215711000,1,0
0.215712250,0,0
0.215731750,0,1
0.215733500,1,1
0.215752500,1,0
0.215754000,0,0
0.215773250,0,1
0.215775000,1,1
0.215794250,1,0
0.215795500,0,0
0.215815000,0,1
0.215816750,1,1
0.215835750,1,0
0.215837250,0,0
0.215856500,0,1
0.215858250,1,1
0.215877500,1,0
0.215878750,0,0
0.215898250,0,1
0.215900000,1,1
0.215919000,1,0
0.215920500,0,0
0.215940000,0,1
0.215941500,1,1
0.215960750,1,0
0.215962000,0,0
0.215981500,0,1
0.215983250,1,1
0.216002250,1,0
0.216003750,0,0
0.216023250,0,1
0.216024750,1,1
0.216044000,1,0
0.216045250,0,0
0.216064750,0,1
0.216066500,1,1
0.216085500,1,0
0.216087000,0,0
0.216106500,0,1
0.216108000,1,1
0.216127250,1,0
0.216128500,0,0
0.216148000,0,1
0.216149750,1,1
0.216210500,1,0
0.216212000,0,0
0.216231250,0,1
0.216233000,1,1
0.216293750,1,0
0.216295250,0,0
0.216314500,0,1
0.216316250,1,1
0.216335250,1,0
0.216336750,0,0
0.216356250,0,1
0.216358000,1,1
0.216377000,1,0
0.216378500,0,0
0.216397750,0,1
0.216399500,1,1
0.216418750,1,0
0.216420000,0,0
0.216439500,0,1
0.216441250,1,1
0.216460250,1,0
0.216461750,0,0
0.216481000,0,1
0.216482750,1,1
0.216502000,1,0
0.216503250,0,0
0.216522750,0,1
0.216524500,1,1
0.216543500,1,0
0.216545000,0,0
0.216564250,0,1
0.216566000,1,1
0.216585250,1,0
0.216586500,0,0
0.216606000,0,1
0.216607750,1,1
0.216626750,1,0
0.216628250,0,0
0.216647500,0,1
0.216649250,1,1
0.216668500,1,0
0.216669750,0,0
0.216689250,0,1
0.216691000,1,1
0.216710000,1,0
0.216711500,0,0
0.216730750,0,1
0.216732500,1,1
0.216751750,1,0
0.216753000,0,0
0.216772500,0,1
0.216774250,1,1
0.216793250,1,0
0.216794750,0,0
0.216814000,0,1
0.216815750,1,1
0.216835000,1,0
0.216836250,0,0
0.216855750,0,1
0.216857500,1,1
0.216876500,1,0
0.216878000,0,0
0.216897500,0,1
0.216899000,1,1
0.216918250,1,0
0.216919500,0,0
0.216939000,0,1
0.216940750,1,1
0.216959750,1,0
0.216961250,0,0
0.216980750,0,1
0.216982250,1,1
0.217001500,1,0
0.217002750,0,0
0.217022250,0,1
0.217024000,1,1
0.217084750,1,0
0.217086250,0,0
0.217105500,0,1
0.217107250,1,1
0.217126250,1,0
0.217127750,0,0
0.217147250,0,1
0.217149000,1,1
0.217168000,1,0
0.217169500,0,0
0.217188750,0,1
0.217190500,1,1
0.217293000,1,0
0.217294500,0,0
0.217313750,0,1
0.217315250,1,1
0.217334500,1,0
0.217335750,0,0
0.217355250,0,1
0.217357000,1,1
0.217376250,1,0
0.217377500,0,0
0.217397000,0,1
0.217398750,1,1
0.217417750,1,0
0.217419250,0,0
0.217438500,0,1
0.217440250,1,1
0.217459500,1,0
0.217460750,0,0
0.217480250,0,1
0.217482000,1,1
0.217501000,1,0
0.217502500,0,0
0.217521750,0,1
0.217523500,1,1
0.217542750,1,0
0.217544000,0,0
0.217563500,0,1
0.217565250,1,1
0.217584250,1,0
0.217585750,0,0
0.217605000,0,1
0.217606750,1,1
0.217626000,1,0
0.217627250,0,0
0.217646750,0,1
0.217648500,1,1
0.217667500,1,0
0.217669000,0,0
0.217688500,0,1
0.217690000,1,1
0.217709250,1,0
0.217710500,0,0
0.217730000,0,1
0.217731750,1,1
0.217750750,1,0
0.217752250,0,0
0.217771750,0,1
0.217773250,1,1
0.217792500,1,0
0.217793750,0,0
0.217813250,0,1
0.217815000,1,1
0.217834000,1,0
0.217835500,0,0
0.217855000,0,1
0.217856500,1,1
0.218000500,1,0
0.218002250,0,0
0.218021500,0,1
0.218023000,1,1
0.218042250,1,0
0.218043500,0,0
0.218063000,0,1
0.218064750,1,1
0.218083750,1,0
0.218085250,0,0
0.218104750,0,1
0.218106250,1,1
0.218125500,1,0
0.218126750,0,0
0.218146250,0,1
0.218148000,1,1
0.218167250,1,0
0.218168500,0,0
0.218188000,0,1
0.218189500,1,1
0.218208750,1,0
0.218210250,0,0
0.218229500,0,1
0.218231250,1,1
0.218250500,1,0
0.218251750,0,0
0.218271250,0,1
0.218273000,1,1
0.218292000,1,0
0.218293500,0,0
0.218312750,0,1
0.218314500,1,1
0.218333750,1,0
0.218335000,0,0
0.218354500,0,1
0.218356250,1,1
0.218375250,1,0
0.218376750,0,0
0.218396000,0,1
0.218397750,1,1
0.218417000,1,0
0.218418250,0,0
0.218437750,0,1
0.218439500,1,1
0.218458500,1,0
0.218460000,0,0
0.218479250,0,1
0.218481000,1,1
0.218500250,1,0
0.218501500,0,0
0.218521000,0,1
0.218522750,1,1
0.218541750,1,0
0.218543250,0,0
0.218562750,0,1
0.218564250,1,1
0.218583500,1,0
0.218584750,0,0
0.218604250,0,1
0.218606000,1,1
0.218625000,1,0
0.218626500,0,0
0.218646000,0,1
0.218647500,1,1
0.218666750,1,0
0.218668000,0,0
0.218687500,0,1
0.218689250,1,1
0.218708250,1,0
0.218709750,0,0
0.218729250,0,1
0.218731000,1,1
0.218750000,1,0
0.218751500,0,0
0.218770750,0,1
0.218772500,1,1
0.218791500,1,0
0.218793000,0,0
0.218812500,0,1
0.218814250,1,1
0.218833250,1,0
0.218834750,0,0
0.218854000,0,1
0.218855750,1,1
0.218875000,1,0
0.218876250,0,0
0.218895750,0,1
0.218897500,1,1
0.218916500,1,0
0.218918000,0,0
0.218937250,0,1
0.218939000,1,1
0.218958250,1,0
0.218959500,0,0
0.218979000,0,1
0.218980750,1,1
0.218999750,1,0
0.219001250,0,0
0.219020500,0,1
0.219022250,1,1
0.219041500,1,0
0.219042750,0,0
0.219062250,0,1
0.219064000,1,1
0.219083000,1,0
0.219084500,0,0
0.219103750,0,1
0.219105500,1,1
0.219124750,1,0
0.219126000,0,0
0.219145500,0,1
0.219147250,1,1
0.219166250,1,0
0.219167750,0,0
0.219187000,0,1
0.219188750,1,1
0.219208000,1,0
0.219209250,0,0
0.219228750,0,1
0.219230500,1,1
0.219249500,1,0
0.219251000,0,0
0.219270500,0,1
0.219272000,1,1
0.219291250,1,0
0.219292500,0,0
0.219312000,0,1
0.219313750,1,1
0.219332750,1,0
0.219334250,0,0
0.219353750,0,1
0.219355250,1,1
0.219374500,1,0
0.219375750,0,0
0.219395250,0,1
0.219397000,1,1
0.219416000,1,0
0.219417500,0,0
0.219437000,0,1
0.219438500,1,1
0.219457750,1,0
0.219459000,0,0
0.219478500,0,1
0.219480250,1,1
0.219499250,1,0
0.219500750,0,0
0.219520250,0,1
0.219521750,1,1
0.219541000,1,0
0.219542500,0,0
0.219561750,0,1
0.219563500,1,1
0.219582500,1,0
0.219584000,0,0
0.219603500,0,1
0.219605000,1,1
0.219624250,1,0
0.219625750,0,0
0.219645000,0,1
0.219646750,1,1
0.219666000,1,0
0.219667250,0,0
0.219686750,0,1
0.219688500,1,1
0.219707500,1,0
0.219709000,0,0
0.219728250,0,1
0.219730000,1,1
0.219749250,1,0
0.219750500,0,0
0.219770000,0,1
0.219771750,1,1
0.219790750,1,0
0.219792250,0,0
0.219811500,0,1
0.219813250,1,1
0.219832500,1,0
0.219833750,0,0
0.219853250,0,1
0.219855000,1,1
0.219874000,1,0
0.219875500,0,0
0.219894750,0,1
0.219896500,1,1
0.219915750,1,0
0.219917000,0,0
0.219936500,0,1
0.219938250,1,1
0.219957250,1,0
0.219958750,0,0
0.219978250,0,1
0.219979750,1,1
0.219999000,1,0
0.220000250,0,0
0.220019750,0,1
0.220021500,1,1
0.220040500,1,0
0.220042000,0,0
0.220061500,0,1
0.220063000,1,1
0.220082250,1,0
0.220083750,0,0
0.220103000,0,1
0.220104750,1,1
0.220123750,1,0
0.220125250,0,0
0.220144750,0,1
0.220146500,1,1
0.220165500,1,0
0.220167000,0,0
0.220186250,0,1
0.220188000,1,1
0.220207000,1,0
0.220208500,0,0
0.220228000,0,1
0.220229750,1,1
0.220290500,1,0
0.220292000,0,0
0.220311250,0,1
0.220312750,1,1
0.220332000,1,0
0.220333250,0,0
0.220352750,0,1
0.220354500,1,1
0.220373750,1,0
0.220375000,0,0
0.220394500,0,1
0.220396250,1,1
0.220457000,1,0
0.220458500,0,0
0.220477750,0,1
0.220479500,1,1
0.220498500,1,0
0.220500000,0,0
0.220519250,0,1
0.220521000,1,1
0.220540250,1,0
0.220541500,0,0
0.220561000,0,1
0.220562750,1,1
0.220581750,1,0
0.220583250,0,0
0.220602750,0,1
0.220604250,1,1
0.220623500,1,0
0.220624750,0,0
0.220644250,0,1
0.220646000,1,1
0.220706750,1,0
0.220708250,0,0
0.220727500,0,1
0.220729250,1,1
0.220748250,1,0
0.220749750,0,0
0.220769250,0,1
0.220771000,1,1
0.220790000,1,0
0.220791500,0,0
0.220810750,0,1
0.220812500,1,1
0.220831500,1,0
0.220833000,0,0
0.220852500,0,1
0.220854250,1,1
0.220873250,1,0
0.220874750,0,0
0.220894000,0,1
0.220895750,1,1
0.220915000,1,0
0.220916250,0,0
0.220935750,0,1
0.220937500,1,1
0.220998250,1,0
0.220999750,0,0
0.221019000,0,1
0.221020500,1,1
0.221081500,1,0
0.221083000,0,0
0.221102250,0,1
0.221104000,1,1
0.221123000,1,0
0.221124500,0,0
0.221143750,0,1
0.221145500,1,1
0.221289500,1,0
0.221291250,0,0
0.221310500,0,1
0.221312000,1,1
0.221331250,1,0
0.221332500,0,0
0.221352000,0,1
0.221353750,1,1
0.221456250,1,0
0.221457750,0,0
0.221477000,0,1
0.221478500,1,1
0.221539500,1,0
0.221540750,0,0
0.221560250,0,1
0.221561750,1,1
0.221581000,1,0
0.221582500,0,0
0.221601750,0,1
0.221603500,1,1
0.221622750,1,0
0.221624000,0,0
0.221643500,0,1
0.221645250,1,1
0.221747500,1,0
0.221749000,0,0
0.221768250,0,1
0.221770000,1,1
0.221830750,1,0
0.221832250,0,0
0.221851750,0,1
0.221853250,1,1
0.221955750,1,0
0.221957250,0,0
0.221976500,0,1
0.221978250,1,1
0.221997250,1,0
0.221998750,0,0
0.222018250,0,1
0.222020000,1,1
0.222122250,1,0
0.222123750,0,0
0.222143000,0,1
0.222144750,1,1
0.222163750,1,0
0.222165250,0,0
0.222184750,0,1
0.222186500,1,1
0.222288750,1,0
0.222290250,0,0
0.222309500,0,1
0.222311250,1,1
0.222330500,1,0
0.222331750,0,0
0.222351250,0,1
0.222353000,1,1
0.222372000,1,0
0.222373500,0,0
0.222392750,0,1
0.222394500,1,1
0.222413750,1,0
0.222415000,0,0
0.222434500,0,1
0.222436250,1,1
0.222497000,1,0
0.222498500,0,0
0.222517750,0,1
0.222519500,1,1
0.222538500,1,0
0.222540000,0,0
0.222559250,0,1
0.222561000,1,1
0.222580250,1,0
0.222581500,0,0
0.222601000,0,1
0.222602750,1,1
0.222663500,1,0
0.222665000,0,0
0.222684250,0,1
0.222686000,1,1
0.222705000,1,0
0.222706500,0,0
0.222726000,0,1
0.222727750,1,1
0.222788250,1,0
0.222790000,0,0
0.222809250,0,1
0.222810750,1,1
0.222830000,1,0
0.222831250,0,0
0.222850750,0,1
0.222852500,1,1
0.222871500,1,0
0.222873000,0,0
0.222892500,0,1
0.222894000,1,1
0.222913250,1,0
0.222914500,0,0
0.222934000,0,1
0.222935750,1,1
0.222996500,1,0
0.222998000,0,0
0.223017250,0,1
0.223019000,1,1
0.223038250,1,0
0.223039500,0,0
0.223059000,0,1
0.223060750,1,1
0.223079750,1,0
0.223081250,0,0
0.223100500,0,1
0.223102250,1,1
0.223121500,1,0
0.223122750,0,0
0.223142250,0,1
0.223144000,1,1
0.223163000,1,0
0.223164500,0,0
0.223183750,0,1
0.223185500,1,1
0.223204750,1,0
0.223206000,0,0
0.223225500,0,1
0.223227250,1,1
0.223246250,1,0
0.223247750,0,0
0.223267000,0,1
0.223268750,1,1
0.223288000,1,0
0.223289250,0,0
0.223308750,0,1
0.223310500,1,1
0.223329500,1,0
0.223331000,0,0
0.223350250,0,1
0.223352000,1,1
0.223371250,1,0
0.223372500,0,0
0.223392000,0,1
0.223393750,1,1
0.223412750,1,0
0.223414250,0,0
0.223433750,0,1
0.223435250,1,1
0.223454500,1,0
0.223455750,0,0
0.223475250,0,1
0.223477000,1,1
0.223496000,1,0
0.223497500,0,0
0.223517000,0,1
0.223518500,1,1
0.223537750,1,0
0.223539000,0,0
0.223558500,0,1
0.223560250,1,1
0.223579250,1,0
0.223580750,0,0
0.223600250,0,1
0.223601750,1,1
0.223621000,1,0
0.223622250,0,0
0.223641750,0,1
0.223643500,1,1
0.223662500,1,0
0.223664000,0,0
0.223683500,0,1
0.223685000,1,1
0.223704250,1,0
0.223705750,0,0
0.223725000,0,1
0.223726750,1,1
0.223745750,1,0
0.223747250,0,0
0.223766750,0,1
0.223768500,1,1
0.223787500,1,0
0.223789000,0,0
0.223808250,0,1
0.223810000,1,1
0.223829250,1,0
0.223830500,0,0
0.223850000,0,1
0.223851750,1,1
0.223870750,1,0
0.223872250,0,0
0.223891500,0,1
0.223893250,1,1
0.223912500,1,0
0.223913750,0,0
0.223933250,0,1
0.223935000,1,1
0.223954000,1,0
0.223955500,0,0
0.223974750,0,1
0.223976500,1,1
0.223995750,1,0
0.223997000,0,0
0.224016500,0,1
0.224018250,1,1
0.224037250,1,0
0.224038750,0,0
0.224058000,0,1
0.224059750,1,1
0.224079000,1,0
0.224080250,0,0
0.224099750,0,1
0.224101500,1,1
0.224120500,1,0
0.224122000,0,0
0.224141250,0,1
0.224143000,1,1
0.224162250,1,0
0.224163500,0,0
0.224183000,0,1
0.224184750,1,1
0.224203750,1,0
0.224205250,0,0
0.224224750,0,1
0.224226250,1,1
0.224245500,1,0
0.224246750,0,0
0.224266250,0,1
0.224268000,1,1
0.224287000,1,0
0.224288500,0,0
0.224308000,0,1
0.224309500,1,1
0.224328750,1,0
0.224330000,0,0
0.224349500,0,1
0.224351250,1,1
0.224370250,1,0
0.224371750,0,0
0.224391250,0,1
0.224393000,1,1
0.224412000,1,0
0.224413500,0,0
0.224432750,0,1
